# HZ S RI R 50
50000 -0.48928679924192586 0.3917040450048262
59736 -0.45127500426545764 0.41192883141744197
69472 -0.404811707687605 0.46117914889512535
79208 -0.37265204199786317 0.48780852362957733
88944 -0.32347679892537134 0.5048656188611631
98680 -0.28024246395089886 0.5148929018387928
108416 -0.24692520091243034 0.5345172017063515
118152 -0.21017127390799806 0.5471563742269416
127888 -0.1747175907133208 0.5592505951712257
137624 -0.13780434720249324 0.571896050844759
147360 -0.1074445314516598 0.5701419942844097
157096 -0.07935940453019875 0.581324832262501
166832 -0.043552605247178196 0.587794169259563
176568 -0.02354014404908216 0.5898775662378064
186304 0.0073524735261712715 0.5893923154764029
196040 0.02672595718413327 0.593647717946359
205776 0.05010829293819703 0.5952116051658005
215512 0.07772002143822578 0.5929133983813341
225248 0.09426396670619108 0.5972325373692812
234984 0.11349087070407926 0.596488420553591
244720 0.13333593500292157 0.5952489801324379
254456 0.15411155662766443 0.5932985111044773
264192 0.17074935790252121 0.5947889381149155
273928 0.18927349700056417 0.5911463222740461
283664 0.20596513701169225 0.5890705637504284
293400 0.21129689157235226 0.6029944806613471
303136 0.2342711558867647 0.5813036233119724
312872 0.25637919911014195 0.5816098168157748
322608 0.26688546896689136 0.5844301144810593
332344 0.2814889086501542 0.5774874403705497
342080 0.29325323006073095 0.5748658962543908
351816 0.3088538752840122 0.5719230020075982
361552 0.3209371389275618 0.5679162392737325
371288 0.3330454248691716 0.5645535669755213
381024 0.3450815534420062 0.5622816006330537
390760 0.3556920527827724 0.55846153503721
400496 0.3669735406157679 0.5553941049761955
410232 0.3772492880443508 0.5523544825255893
419968 0.3867676875546349 0.5487484903723663
429704 0.3972281896386143 0.5450873402102987
439440 0.4073940835540146 0.5425073564302256
449176 0.4163957232579092 0.5389604593199364
458912 0.42522712084252756 0.5357986605231178
468648 0.4341729402718703 0.5322466382242265
478384 0.44256121326377834 0.5287638054642226
488120 0.4509090770866883 0.5262586115227585
497856 0.4583176717463668 0.5227399693828853
507592 0.4683228039862864 0.5205418351221255
517328 0.4761226215238339 0.5176414058640921
527064 0.48314591759048636 0.513386234023875
536800 0.4912013737496749 0.5106856928807181
546536 0.4974255297290333 0.5074584068323835
556272 0.5052965313788121 0.5047045980526569
566008 0.5112034630953918 0.5011698658323654
575744 0.517822437804201 0.49774740434404474
585480 0.5213406415674259 0.49430910177548704
595216 0.5297628159880178 0.49247466671593276
604952 0.5363539055290157 0.48939421100480035
614688 0.5391588766815213 0.48571334832269647
624424 0.5479291473521724 0.482079830225376
634160 0.5531929298448582 0.4788788350121697
643896 0.5589144475457651 0.47596909574468255
653632 0.5646372922457024 0.47315104320032125
663368 0.5690166355297158 0.47098410205278785
673104 0.5740865701674553 0.46756876096017175
682840 0.578729922108503 0.4647583923566031
692576 0.5838982727850095 0.4615150708787131
702312 0.5887643673269599 0.4586048643084036
712048 0.5934362566171127 0.4557342243898339
721784 0.5988734406991585 0.4530215629010703
731520 0.60229325890635 0.45032023800830545
741256 0.6072422455194771 0.44771245694712314
750992 0.6235273017571363 0.4446879893520405
760728 0.6155737706969485 0.44169100304774583
770464 0.6192067277096753 0.4390336254782269
780200 0.6219651517696186 0.4365503229577192
789936 0.6272086221412926 0.43318095449014454
799672 0.6313950542623192 0.4321616655304659
809408 0.6349352105251023 0.4279544573804933
819144 0.6386042295234775 0.42624288281874173
828880 0.6419435185813629 0.42360510400806434
838616 0.6452516877813841 0.4209222160608358
848352 0.6486084056894122 0.41766069826252206
858088 0.6523945039360217 0.4163162910094464
867824 0.6549042120616524 0.41320588221306076
877560 0.6596706781688934 0.4098418377125172
887296 0.6630143075386643 0.40792289758026434
897032 0.6656550606851258 0.40613895605805794
906768 0.6680228109620613 0.4036704812135056
916504 0.6715306447715002 0.4010845864305548
926240 0.6750519355567823 0.3989040944602219
935976 0.6767511473703373 0.39596378168759766
945712 0.681696887517861 0.39341601651369495
955448 0.6826377231073352 0.3924689830739362
965184 0.6867500446316758 0.38923463650180345
974920 0.6910044897701405 0.3878229478467613
984656 0.6924612211369129 0.38530900902994336
994392 0.693880285853415 0.38296535233500384
1004128 0.6964874548748047 0.3806979445112684
1013864 0.6997260159074433 0.3788358733594526
1023600 0.701036019955058 0.3759649419357357
1033336 0.705505283239681 0.37372564441884853
1043072 0.7072383557526694 0.3720160781400761
1052808 0.7102193339176942 0.36974729063397205
1062544 0.7118652779845567 0.36756065501849294
1072280 0.7144808138866064 0.36510561766578314
1082016 0.7166707493064058 0.36326717024613575
1091752 0.7185072843725501 0.36158646261133304
1101488 0.7207930137944922 0.3595422799611364
1111224 0.7226434976755431 0.3567643434748513
1120960 0.7262149447333468 0.3554465020528098
1130696 0.7274430087174474 0.3537212150600265
1140432 0.729862934661661 0.3510654526487302
1150168 0.7322689816921225 0.34934987619199825
1159904 0.7333999376571638 0.34696023196248277
1169640 0.7355805344499386 0.34496663045562903
1179376 0.7372029895580535 0.34321623836902854
1189112 0.740154876735384 0.34096672896809527
1198848 0.7391672498462244 0.33512314195864645
1208584 0.7436034553599472 0.33789053142065495
1218320 0.7454492828061487 0.33578803983160405
1228056 0.747404174280497 0.3338373459348788
1237792 0.7495106645879469 0.3326358083883563
1247528 0.7507701640884582 0.33001229877592964
1257264 0.7530748929264905 0.32841848402568596
1267000 0.7541296556906614 0.32603528422235545
1276736 0.7565000214581528 0.3247481408874362
1286472 0.7573188278692266 0.3231735986936076
1296208 0.7601230906128627 0.32111004026236845
1305944 0.7608602070520256 0.32060481457552203
1315680 0.7628661088396586 0.3178273358437813
1325416 0.7645586549430887 0.31590555580165575
1335152 0.7664822374395092 0.314416726364327
1344888 0.7677426747816068 0.31327740473535326
1354624 0.7689250878575974 0.3112222185817606
1364360 0.7709295119760017 0.3092229663057163
1374096 0.7715677178923084 0.30775887677380986
1383832 0.7738862830882477 0.3062441246980394
1393568 0.7752741378881787 0.3041265646449661
1403304 0.7773073963739209 0.3030235927605812
1413040 0.7782910278943934 0.3012707269880454
1422776 0.7789235497272674 0.29965604595146594
1432512 0.7812355373313373 0.2978537195016679
1442248 0.7810459898884136 0.29686399083742754
1451984 0.7830836712473528 0.29389848201751384
1461720 0.7851344754670755 0.29284119519335483
1471456 0.7868497698589066 0.2908010200357928
1481192 0.7881253331067495 0.28957095558895923
1490928 0.7890582534212456 0.2874602158038967
1500664 0.7908921216980218 0.28632275738363866
1510400 0.7912073315603084 0.28484540698863126
1520136 0.7934597425987914 0.28402712364624133
1529872 0.7933227188361845 0.2817926185503466
1539608 0.7956020190437908 0.2802658499807186
1549344 0.7962816146735948 0.2793862875306965
1559080 0.7976595521078716 0.27857302184084276
1568816 0.7988374357900803 0.2760823995313906
1578552 0.7993153176700711 0.2744625147163558
1588288 0.801222801666429 0.27337297603350036
1598024 0.8014603438161394 0.27201903280556705
1607760 0.8034532373497049 0.27034352664925787
1617496 0.8039318472230897 0.26871939042430076
1627232 0.8055828216126026 0.2682225884099794
1636968 0.8071595674388982 0.2666697214449805
1646704 0.8064610424858475 0.2651126438643279
1656440 0.8086921938174512 0.2634047248567916
1666176 0.809145042877302 0.2620896230342482
1675912 0.8105297644757906 0.2607084272737154
1685648 0.8127660630633698 0.2589260814921074
1695384 0.8128126487443309 0.25783064963950875
1705120 0.8137528786859154 0.25512932828619
1714856 0.8149644092584798 0.2548937663546277
1724592 0.8172062649568167 0.2530280941795693
1734328 0.8159309541833513 0.2519603788933799
1744064 0.8180249951521881 0.2505480546710892
1753800 0.8192082384168967 0.24998769328992698
1763536 0.8189051188942623 0.24828526303249046
1773272 0.8205974481208846 0.2464458016254287
1783008 0.8210103461967431 0.24594628584508174
1792744 0.8235760993884187 0.2445764979408412
1802480 0.8226007250215727 0.24381733023189245
1812216 0.8246585377687327 0.24233242561803991
1821952 0.8259603094372268 0.2396470910481458
1831688 0.8255671656853395 0.23949675480164992
1841424 0.8274608930189696 0.2379578888526177
1851160 0.8279612458691035 0.23689079546112438
1860896 0.8289665640301246 0.23575727249812656
1870632 0.8293920779345212 0.2341885138904406
1880368 0.8303760210762244 0.23283374751798333
1890104 0.830937950711259 0.2322443836915287
1899840 0.8321810786452064 0.23022236402825905
1909576 0.833156054048414 0.22923596212948538
1919312 0.8332833935868362 0.22805181726301055
1929048 0.8345606893374421 0.22648955533341564
1938784 0.8346598151317378 0.2254726337155413
1948520 0.8353470297299023 0.22472399758685285
1958256 0.836369182838875 0.2231317795722781
1967992 0.8375438724333203 0.2221574536453173
1977728 0.8387567769484531 0.2202681502777388
1987464 0.838869611151379 0.21981739214060295
1997200 0.8395964930554669 0.21792729586106524
2006936 0.8397389336411049 0.2166147563947028
2016672 0.841609973573893 0.21635075063716433
2026408 0.8416771577140051 0.21536516087456387
2036144 0.8426442392135529 0.2136507928757303
2045880 0.84280466204919 0.21238275933523842
2055616 0.8444268528998411 0.21147482092074732
2065352 0.8452554252512661 0.2108510265810246
2075088 0.8451625770218119 0.20906346833143444
2084824 0.8459722492007234 0.20815816083878663
2094560 0.8464606334023178 0.20710695362705436
2104296 0.8478034009409162 0.20537001252352705
2114032 0.8479708579528197 0.20493561173898783
2123768 0.8485846364173228 0.20464242046493417
2133504 0.8489016506167296 0.20259294929009666
2143240 0.8496565155570245 0.20106475275475044
2152976 0.8511068362059763 0.2006130877316072
2162712 0.851399498018447 0.19889154743153648
2172448 0.8528048346344398 0.1980341650103371
2182184 0.8520025944026589 0.19706250844108733
2191920 0.8532115261457699 0.1959138759861754
2201656 0.853913929473956 0.19483351281720948
2211392 0.8548472925975497 0.19384259409604873
2221128 0.8545162925574439 0.1932601986870355
2230864 0.8556626477479702 0.1918725988771986
2240600 0.857549817782215 0.19118639868105294
2250336 0.8560654063868114 0.18992056147684785
2260072 0.8582631790938634 0.18770255647587977
2269808 0.8577563850675541 0.18763963748003565
2279544 0.8584433256932614 0.18553690503012074
2289280 0.8594899775555653 0.18530768856415117
2299016 0.8599597087730209 0.1845736567915482
2308752 0.8614286979296465 0.183852201959821
2318488 0.8605805621638195 0.1817925055835101
2328224 0.8616190159328679 0.181332928380216
2337960 0.86179782732076 0.18024395916648803
2347696 0.8620688926251239 0.1791131750586521
2357432 0.8624712030342928 0.1782668319712781
2367168 0.8631816853511212 0.1773374845185307
2376904 0.8649789389016662 0.17659947839780202
2386640 0.8643094767693364 0.17548685559315627
2396376 0.8654972566994923 0.1746940922672583
2406112 0.8653634408238124 0.17335991252790947
2415848 0.8659824837277765 0.17287614483874422
2425584 0.8665900798672075 0.17183924889054777
2435320 0.8664813978830755 0.17055855245285964
2445056 0.8679074473655736 0.16906989685399304
2454792 0.8674120557954318 0.1689097882490016
2464528 0.8686143854925542 0.1665706562705254
2474264 0.8692681012910897 0.16629576271163915
2484000 0.8696950692815723 0.16513160533624607
2493736 0.8693440115750231 0.1645099257099162
2503472 0.8702230634807013 0.16417347833342655
2513208 0.8706562986168568 0.1621610808063124
2522944 0.8710260273071682 0.16195766043192666
2532680 0.8723779397056697 0.16023983479335563
2542416 0.8715130321253735 0.1599838190504084
2552152 0.8725506546526998 0.15780986282084028
2561888 0.8731986638397341 0.15776632967910595
2571624 0.8739292542369911 0.15669452387368338
2581360 0.8737284630350055 0.15627302905951027
2591096 0.8738603977591947 0.1548421068903518
2600832 0.8745279096713571 0.1544008534868263
2610568 0.874592824152247 0.15353178083719785
2620304 0.8764291689918353 0.15199572481973858
2630040 0.8755213316565176 0.15145766390149482
2639776 0.8767160636902315 0.1510163956898303
2649512 0.8774950889505823 0.14840559714846116
2659248 0.8764120992544008 0.14891175777082907
2668984 0.8780679847464593 0.1468732672275269
2678720 0.8781889570932776 0.14642770269074615
2688456 0.8791206213931806 0.14648313724720582
2698192 0.8789199476731321 0.14508280414250482
2707928 0.8793593208320323 0.14474174683772253
2717664 0.8789222659459088 0.14338577664848456
2727400 0.8796525495455131 0.14252538897039502
2737136 0.8811475749041673 0.14076235315986713
2746872 0.880778299718919 0.14096076499891846
2756608 0.881375863976661 0.13926722556313234
2766344 0.8811765045485263 0.13848485681591077
2776080 0.8809813805491726 0.1379080339544141
2785816 0.882745396898509 0.13617397843804435
2795552 0.8825439610324074 0.13652711968910922
2805288 0.8833307337491378 0.13594211494445627
2815024 0.8834838975929384 0.13351940472638937
2824760 0.8837195359027415 0.1336384992622302
2834496 0.884136744074059 0.1320730531940651
2844232 0.8842584853570226 0.13204236672281436
2853968 0.8849385660380373 0.13005417039301673
2863704 0.884960157207167 0.1292866914271917
2873440 0.8852074684977522 0.1291051644393671
2883176 0.8854525456525837 0.12790854885401856
2892912 0.8859779045563098 0.127746138433882
2902648 0.8863650505720626 0.12613014704220823
2912384 0.8867061697107552 0.12551688568427283
2922120 0.8866428216895126 0.1250336331201394
2931856 0.8868010977131721 0.1239733791031462
2941592 0.887510542523235 0.12339169061328488
2951328 0.8884108249654566 0.12196396112676937
2961064 0.8879986532180549 0.12094607504090746
2970800 0.8887566139486557 0.12074699154325062
2980536 0.8890729077854124 0.12004024972775178
2990272 0.8899650081205025 0.11887418389409937
3000008 0.8905215173210848 0.11827927805173168
3009744 0.8892767699567785 0.11660251037443593
3019480 0.8894473390258529 0.1162434002654727
3029216 0.8906777073949053 0.11571797394881468
3038952 0.8907467501520693 0.11552895207511343
3048688 0.8909064981004964 0.1142161851654295
3058424 0.8913027923502569 0.11291362107183546
3068160 0.8906932156920072 0.11230510646905507
3077896 0.8908693802964635 0.11167775760030453
3087632 0.8913437119866076 0.11120864293726798
3097368 0.8922957469438332 0.10984314833364868
3107104 0.892584389394804 0.10805838203352044
3116840 0.8933208363457462 0.10766511667300462
3126576 0.8928425936561812 0.10742512337304659
3136312 0.8934461972810568 0.10703500588398825
3146048 0.8937870895871692 0.1058145686620897
3155784 0.8937267896898741 0.10462253855278168
3165520 0.8942037856224733 0.10404518469066225
3175256 0.8947196835530433 0.10295157788920692
3184992 0.8944849558564405 0.10240017305693834
3194728 0.8943107957037153 0.10196481210034222
3204464 0.8948743442587073 0.10069793706932087
3214200 0.896255961077538 0.10007891747156795
3223936 0.89550025683934 0.09881759503909654
3233672 0.896397689104885 0.09831764735807545
3243408 0.8958063991721777 0.0982935332761028
3253144 0.8965603231222781 0.09691016763123202
3262880 0.8967581256046891 0.09593685077937701
3272616 0.8963648951284999 0.09569972824614636
3282352 0.8966012202105687 0.09403648156670086
3292088 0.8975436695862374 0.09447446772066076
3301824 0.8974491483134082 0.09231395981550752
3311560 0.8979394971368196 0.09188224611178888
3321296 0.8980498625772457 0.09195002103521298
3331032 0.8982880677266861 0.09095957471321968
3340768 0.898078353806186 0.09048307717044429
3350504 0.8985747669261672 0.0891308346237258
3360240 0.8990577195306161 0.08824535479475396
3369976 0.8992553734599928 0.08832478515676508
3379712 0.899224338444675 0.08642928989868617
3389448 0.8993798744323148 0.08539334097013669
3399184 0.8998384642654295 0.08481773789334453
3408920 0.9001358345217404 0.08452716386120891
3418656 0.8998761253925721 0.08350677832499302
3428392 0.9002871431498707 0.0837566555698809
3438128 0.9008953835582131 0.08177507029781143
3447864 0.9001118474546922 0.08165757231555171
3457600 0.9007638285071936 0.08031524386521352
3467336 0.9014191781068517 0.08016732772145709
3477072 0.9015802923661721 0.0786265387948347
3486808 0.9018271433707896 0.07821988742641002
3496544 0.9020175041497531 0.07870599774542836
3506280 0.9021478835786099 0.07660902792458389
3516016 0.9021186030712858 0.07618002784863152
3525752 0.9024423594022793 0.07498721545043037
3535488 0.9021751653832546 0.07511296640462338
3545224 0.9034149402533929 0.07486525495842639
3554960 0.9021986490597473 0.07317494424386997
3564696 0.9021754000462346 0.07259243019814339
3574432 0.9036390399447666 0.07184004265687999
3584168 0.9028333547390481 0.07133372165771266
3593904 0.9033470759848063 0.07044728809809302
3603640 0.9037155501687364 0.06948212416674703
3613376 0.9038155182205321 0.06938260220813951
3623112 0.9032225107436979 0.0682849458433981
3632848 0.9037447619797984 0.06692274049612648
3642584 0.9047568711006913 0.06595981873939868
3652320 0.9041748581537329 0.0653095285223748
3662056 0.9041486283879416 0.06576183351380493
3671792 0.9045816874789893 0.06456384026925073
3681528 0.9047802559002122 0.06351894983590642
3691264 0.9048197912679893 0.06261707975622977
3701000 0.9056879578840585 0.06210889860952647
3710736 0.9050664801428598 0.06088317224267573
3720472 0.9057901630847272 0.06168518397917764
3730208 0.9055764289409352 0.05977144635512652
3739944 0.9063298407942524 0.05893934653288844
3749680 0.9062821856541825 0.05829016936794059
3759416 0.9062303385707463 0.05752522375809569
3769152 0.9064124495892674 0.05789268698684098
3778888 0.9066596537710658 0.055731662913663244
3788624 0.906709680022452 0.05551820980687401
3798360 0.9066970235395904 0.054366532316861324
3808096 0.9068645621496212 0.05392311418166399
3817832 0.9071649494067481 0.05327424943243101
3827568 0.9071978444004006 0.05210526269458101
3837304 0.9075976234859608 0.0521740613718859
3847040 0.9072906238859255 0.0516103704955504
3856776 0.9066542335079066 0.05077389899640602
3866512 0.9074894501216982 0.05055467004319127
3876248 0.9075667291518619 0.05005828970529623
3885984 0.9078891239173006 0.048801199202477566
3895720 0.9082099216773332 0.048165929347460106
3905456 0.9083959423223482 0.04716996254173622
3915192 0.9088474339843488 0.04589870018052737
3924928 0.908407488559647 0.046038010848898844
3934664 0.9088366518393975 0.045234695355162745
3944400 0.9087164726681862 0.04484646246827506
3954136 0.9092438617185291 0.042788552264017524
3963872 0.9080488241558697 0.04284703616139871
3973608 0.9092562566785282 0.041982704074420535
3983344 0.9087540660453387 0.041996988182498945
3993080 0.9092312553340612 0.041482664632941
4002816 0.9098935172684393 0.040125984352028576
4012552 0.9094946448414103 0.03919472939965863
4022288 0.9099943799196858 0.03781756447749768
4032024 0.9095025781262568 0.038218051439151905
4041760 0.9102513115321449 0.036932051461871784
4051496 0.9101489279231535 0.03633308535403608
4061232 0.9090474383672684 0.035803677183256506
4070968 0.9100287387086211 0.0349356786385492
4080704 0.9095684194799277 0.03486785534320781
4090440 0.9104911564986272 0.03367958807959579
4100176 0.9105604489913925 0.032912616770281816
4109912 0.9098133501764634 0.03249517083287189
4119648 0.9106976447790727 0.03140797985581315
4129384 0.9101671152508439 0.03167854302565033
4139120 0.9113561594841594 0.03025096524350884
4148856 0.9106114436663932 0.029772410649644098
4158592 0.9107571279172101 0.029650254124293028
4168328 0.9112420491004075 0.028546848135694393
4178064 0.9100966862379646 0.02813428428730392
4187800 0.9117064487505163 0.02641469525884444
4197536 0.9107017288044493 0.026534866866809885
4207272 0.9109040422358464 0.02581431635142775
4217008 0.9114982305624498 0.025395082645416334
4226744 0.9107468524406388 0.024918349911595226
